T128D0 2852:317 SEGGER J-Link V6.30h Log File (0000ms, 8346ms total)
T128D0 2852:317 DLL Compiled: Mar 16 2018 18:02:51 (0000ms, 8346ms total)
T128D0 2852:317 Logging started @ 2018-07-11 18:33 (0000ms, 8346ms total)
T128D0 2852:317 JLINK_SetWarnOutHandler(...) (0000ms, 8346ms total)
T128D0 2852:317 JLINK_OpenEx(...)
Firmware: J-Link OB-SAM3U128-V2-NordicSemi compiled Jan 12 2018 16:05:20
Hardware: V1.00
S/N: 682227283
TELNET listener socket opened on port 19021C:\Program Files (x86)\SEGGER\JLink_V620b\JLinkDevices.xml evaluated successfully.WEBSRV 
Starting webserver (0095ms, 8441ms total)
T128D0 2852:317 WEBSRV Webserver running on local port 19080 (0095ms, 8441ms total)
T128D0 2852:317   returns O.K. (0095ms, 8441ms total)
T128D0 2852:412 JLINK_GetEmuCaps()  returns 0xB8EA5A33 (0000ms, 8441ms total)
T128D0 2852:412 JLINK_TIF_GetAvailable(...) (0000ms, 8441ms total)
T128D0 2852:412 JLINK_SetErrorOutHandler(...) (0000ms, 8441ms total)
T128D0 2852:412 JLINK_ExecCommand("ProjectFile = "C:\Users\Marcus-PC2\Documents\700\nRF5_SDK_15.0.0_a53641a\nRF5_SDK_15.0.0_a53641a\examples\ble_peripheral\ble_app_uart\pca10040\s132\arm5_no_packs\JLinkSettings.ini"", ...).   returns 0x00 (0001ms, 8442ms total)
T128D0 2852:415 JLINK_ExecCommand("Device = nRF52832_xxAA", ...). Device "NRF52832_XXAA" selected.  returns 0x00 (0002ms, 8444ms total)
T128D0 2852:417 JLINK_ExecCommand("DisableConnectionTimeout", ...).   returns 0x01 (0000ms, 8444ms total)
T128D0 2852:417 JLINK_GetHardwareVersion()  returns 0x2710 (0000ms, 8444ms total)
T128D0 2852:417 JLINK_GetDLLVersion()  returns 63008 (0000ms, 8444ms total)
T128D0 2852:417 JLINK_GetFirmwareString(...) (0000ms, 8444ms total)
T128D0 2852:422 JLINK_GetDLLVersion()  returns 63008 (0000ms, 8444ms total)
T128D0 2852:422 JLINK_GetCompileDateTime() (0000ms, 8444ms total)
T128D0 2852:424 JLINK_GetFirmwareString(...) (0000ms, 8444ms total)
T128D0 2852:425 JLINK_GetHardwareVersion()  returns 0x2710 (0000ms, 8444ms total)
T128D0 2852:430 JLINK_TIF_Select(JLINKARM_TIF_SWD)  returns 0x00 (0000ms, 8444ms total)
T128D0 2852:430 JLINK_SetSpeed(5000) (0001ms, 8445ms total)
T128D0 2852:431 JLINK_GetId() >0x10B TIF>Found SW-DP with ID 0x2BA01477 >0x0D TIF> >0x28 TIF> >0x0D TIF> >0x28 TIF> >0x10B TIF>Found SW-DP with ID 0x2BA01477 >0x0D TIF> >0x28 TIF> >0x0D TIF> >0x28 TIF> >0x0D TIF> >0x28 TIF> >0x0D TIF> >0x28 TIF> >0x35 TIF> >0x0D TIF> >0x28 TIF>Scanning AP map to find all available APs >0x0D TIF> >0x28 TIF> >0x35 TIF> >0x35 TIF> >0x0D TIF> >0x28 TIF> >0x35 TIF> >0x35 TIF> >0x0D TIF> >0x28 TIF> >0x35 TIF> >0x35 TIF>AP[2]: Stopped AP scan as end of AP map has been reached
AP[0]: AHB-AP (IDR: 0x24770011)AP[1]: JTAG-AP (IDR: 0x02880000)Iterating through AP map to find AHB-AP to use >0x42 TIF> >0x28 TIF> >0x0D TIF> >0x28 TIF> >0x35 TIF> >0x35 TIF> >0x42 TIF> >0x28 TIF> >0x0D TIF> >0x28 TIF> >0x0D TIF> >0x28 TIF> >0x35 TIF> >0x35 TIF>AP[0]: Core foundAP[0]: AHB-AP ROM base: 0xE00FF000 >0x0D TIF> >0x28 TIF> >0x0D TIF> >0x28 TIF> >0x0D TIF> >0x28 TIF> >0x35 TIF> >0x35 TIF>CPUID register: 0x410FC241. Implementer code: 0x41 (ARM)Found Cortex-M4 r0p1, Little endian.
 -- CPU_ReadMem(4 bytes @ 0xE000EDF0) -- CPU_WriteMem(4 bytes @ 0xE000EDF0) -- CPU_ReadMem(4 bytes @ 0xE0002000)FPUnit: 6 code (BP) slots and 2 literal slots -- CPU_ReadMem(4 bytes @ 0xE000EDFC) -- CPU_WriteMem(4 bytes @ 0xE000EDFC) -- CPU_ReadMem(4 bytes @ 0xE0001000) -- CPU_WriteMem(4 bytes @ 0xE0001000) -- CPU_ReadMem(4 bytes @ 0xE000ED88) -- CPU_WriteMem(4 bytes @ 0xE000ED88) -- CPU_ReadMem(4 bytes @ 0xE000ED88) -- CPU_WriteMem(4 bytes @ 0xE000ED88)CoreSight components:ROMTbl[0] @ E00FF000
 -- CPU_ReadMem(16 bytes @ 0xE00FF000) -- CPU_ReadMem(16 bytes @ 0xE000EFF0) -- CPU_ReadMem(16 bytes @ 0xE000EFE0)ROMTbl[0][0]: E000E000, CID: B105E00D, PID: 000BB00C SCS-M7 -- CPU_ReadMem(16 bytes @ 0xE0001FF0) -- CPU_ReadMem(16 bytes @ 0xE0001FE0)ROMTbl[0][1]: E0001000, CID: B105E00D, PID: 003BB002 DWT -- CPU_ReadMem(16 bytes @ 0xE0002FF0) -- CPU_ReadMem(16 bytes @ 0xE0002FE0)ROMTbl[0][2]: E0002000, CID: B105E00D, PID: 002BB003 FPB -- CPU_ReadMem(16 bytes @ 0xE0000FF0)
 -- CPU_ReadMem(16 bytes @ 0xE0000FE0)ROMTbl[0][3]: E0000000, CID: B105E00D, PID: 003BB001 ITM -- CPU_ReadMem(16 bytes @ 0xE00FF010) -- CPU_ReadMem(16 bytes @ 0xE0040FF0) -- CPU_ReadMem(16 bytes @ 0xE0040FE0)ROMTbl[0][4]: E0040000, CID: B105900D, PID: 000BB9A1 TPIU -- CPU_ReadMem(16 bytes @ 0xE0041FF0) -- CPU_ReadMem(16 bytes @ 0xE0041FE0)ROMTbl[0][5]: E0041000, CID: B105900D, PID: 000BB925 ETM >0x35 TIF>  returns 0x2BA01477 (0165ms, 8610ms total)
T128D0 2852:596 JLINK_GetDLLVersion()  returns 63008 (0000ms, 8610ms total)
T128D0 2852:596 JLINK_CORE_GetFound()  returns 0xE0000FF (0000ms, 8610ms total)
T128D0 2852:596 JLINK_GetDebugInfo(0x100 = JLINKARM_ROM_TABLE_ADDR_INDEX) -- Value=0xE00FF000  returns 0x00 (0000ms, 8610ms total)
T128D0 2852:597 JLINK_GetDebugInfo(0x100 = JLINKARM_ROM_TABLE_ADDR_INDEX) -- Value=0xE00FF000  returns 0x00 (0000ms, 8610ms total)
T128D0 2852:597 JLINK_GetDebugInfo(0x101 = JLINKARM_DEBUG_INFO_ETM_ADDR_INDEX) -- Value=0xE0041000  returns 0x00 (0000ms, 8610ms total)
T128D0 2852:597 JLINK_ReadMemEx(0xE0041FD0, 0x0020 Bytes, ..., Flags = 0x02000004) -- CPU_ReadMem(32 bytes @ 0xE0041FD0) - Data: 04 00 00 00 00 00 00 00 00 00 00 00 00 00 00 00 ...  returns 0x20 (0002ms, 8612ms total)
T128D0 2852:599 JLINK_GetDebugInfo(0x102 = JLINKARM_DEBUG_INFO_MTB_ADDR_INDEX) -- Value=0x00000000  returns 0x00 (0000ms, 8612ms total)
T128D0 2852:599 JLINK_GetDebugInfo(0x103 = JLINKARM_DEBUG_INFO_TPIU_ADDR_INDEX) -- Value=0xE0040000  returns 0x00 (0000ms, 8612ms total)
T128D0 2852:599 JLINK_GetDebugInfo(0x104 = JLINKARM_DEBUG_INFO_ITM_ADDR_INDEX) -- Value=0xE0000000  returns 0x00 (0000ms, 8612ms total)
T128D0 2852:599 JLINK_GetDebugInfo(0x105 = JLINKARM_DEBUG_INFO_DWT_ADDR_INDEX) -- Value=0xE0001000  returns 0x00 (0000ms, 8612ms total)
T128D0 2852:599 JLINK_GetDebugInfo(0x106 = JLINKARM_DEBUG_INFO_FPB_ADDR_INDEX) -- Value=0xE0002000  returns 0x00 (0000ms, 8612ms total)
T128D0 2852:599 JLINK_GetDebugInfo(0x107 = JLINKARM_DEBUG_INFO_NVIC_ADDR_INDEX) -- Value=0xE000E000  returns 0x00 (0000ms, 8612ms total)
T128D0 2852:599 JLINK_GetDebugInfo(0x10C = JLINKARM_DEBUG_INFO_DBG_ADDR_INDEX) -- Value=0xE000EDF0  returns 0x00 (0000ms, 8612ms total)
T128D0 2852:599 JLINK_GetDebugInfo(0x01 = Unknown) -- Value=0x00000001  returns 0x00 (0000ms, 8612ms total)
T128D0 2852:599 JLINK_ReadMemU32(0xE000ED00, 0x0001 Items, ...) -- CPU_ReadMem(4 bytes @ 0xE000ED00) - Data: 41 C2 0F 41  returns 0x01 (0000ms, 8612ms total)
T128D0 2852:599 JLINK_GetDebugInfo(0x10F = JLINKARM_DEBUG_INFO_HAS_CORTEX_M_SECURITY_EXT_INDEX) -- Value=0x00000000  returns 0x00 (0000ms, 8612ms total)
T128D0 2852:599 JLINK_SetResetType(JLINKARM_CM3_RESET_TYPE_NORMAL)  returns JLINKARM_CM3_RESET_TYPE_NORMAL (0000ms, 8612ms total)
T128D0 2852:599 JLINK_Reset() -- CPU is running -- CPU_WriteMem(4 bytes @ 0xE000EDF0) -- CPU is running -- CPU_WriteMem(4 bytes @ 0xE000EDFC)Reset: Halt core after reset via DEMCR.VC_CORERESET. >0x35 TIF>Reset: Reset device via AIRCR.SYSRESETREQ. -- CPU is running -- CPU_WriteMem(4 bytes @ 0xE000ED0C) >0x0D TIF> >0x28 TIF> -- CPU_ReadMem(4 bytes @ 0xE000EDF0) -- CPU_ReadMem(4 bytes @ 0xE000EDF0) -- CPU is running -- CPU_WriteMem(4 bytes @ 0xE000EDF0) -- CPU is running
 -- CPU_WriteMem(4 bytes @ 0xE000EDFC) -- CPU_ReadMem(4 bytes @ 0xE000EDF0) -- CPU_WriteMem(4 bytes @ 0xE0002000) -- CPU_ReadMem(4 bytes @ 0xE000EDFC) -- CPU_ReadMem(4 bytes @ 0xE0001000) (0074ms, 8686ms total)
T128D0 2852:673 JLINK_Halt()  returns 0x00 (0000ms, 8686ms total)
T128D0 2852:673 JLINK_ReadMemU32(0xE000EDF0, 0x0001 Items, ...) -- CPU_ReadMem(4 bytes @ 0xE000EDF0) - Data: 03 00 03 00  returns 0x01 (0000ms, 8686ms total)
T128D0 2852:673 JLINK_WriteU32(0xE000EDF0, 0xA05F0003) -- CPU_WriteMem(4 bytes @ 0xE000EDF0)  returns 0x00 (0001ms, 8687ms total)
T128D0 2852:674 JLINK_WriteU32(0xE000EDFC, 0x01000000) -- CPU_WriteMem(4 bytes @ 0xE000EDFC)  returns 0x00 (0000ms, 8687ms total)
T128D0 2852:681 JLINK_GetHWStatus(...)  returns 0x00 (0000ms, 8687ms total)
T128D0 2852:686 JLINK_GetNumBPUnits(Type = 0xFFFFFF00)  returns 0x06 (0000ms, 8687ms total)
T128D0 2852:686 JLINK_GetNumBPUnits(Type = 0xF0)  returns 0x2000 (0000ms, 8687ms total)
T128D0 2852:686 JLINK_GetNumWPUnits()  returns 0x04 (0000ms, 8687ms total)
T128D0 2852:691 JLINK_GetSpeed()  returns 0x3E8 (0000ms, 8687ms total)
T128D0 2852:694 JLINK_ReadMemU32(0xE000E004, 0x0001 Items, ...) -- CPU_ReadMem(4 bytes @ 0xE000E004) - Data: 01 00 00 00  returns 0x01 (0000ms, 8687ms total)
T128D0 2852:694 JLINK_ReadMemU32(0xE000E004, 0x0001 Items, ...) -- CPU_ReadMem(4 bytes @ 0xE000E004) - Data: 01 00 00 00  returns 0x01 (0001ms, 8688ms total)
T128D0 2852:695 JLINK_WriteMemEx(0xE0001000, 0x001C Bytes, ..., Flags = 0x02000004) - Data: 01 00 00 00 00 00 00 00 00 00 00 00 00 00 00 00 ... -- CPU_WriteMem(28 bytes @ 0xE0001000)  returns 0x1C (0001ms, 8689ms total)
T128D0 2852:696 JLINK_Halt()  returns 0x00 (0000ms, 8689ms total)
T128D0 2852:696 JLINK_IsHalted()  returns TRUE (0000ms, 8689ms total)
T128D0 2852:698 JLINK_WriteMem(0x20000000, 0x0234 Bytes, ...) - Data: 00 BE 0A E0 0D 78 2D 06 68 40 08 24 40 00 00 D3 ... -- CPU_WriteMem(564 bytes @ 0x20000000)  returns 0x234 (0009ms, 8698ms total)
T128D0 2852:707 JLINK_WriteReg(R0, 0x00000000)  returns 0x00 (0000ms, 8698ms total)
T128D0 2852:707 JLINK_WriteReg(R1, 0x03D09000)  returns 0x00 (0000ms, 8698ms total)
T128D0 2852:707 JLINK_WriteReg(R2, 0x00000001)  returns 0x00 (0000ms, 8698ms total)
T128D0 2852:707 JLINK_WriteReg(R3, 0x00000000)  returns 0x00 (0000ms, 8698ms total)
T128D0 2852:707 JLINK_WriteReg(R4, 0x00000000)  returns 0x00 (0000ms, 8698ms total)
T128D0 2852:707 JLINK_WriteReg(R5, 0x00000000)  returns 0x00 (0000ms, 8698ms total)
T128D0 2852:707 JLINK_WriteReg(R6, 0x00000000)  returns 0x00 (0000ms, 8698ms total)
T128D0 2852:707 JLINK_WriteReg(R7, 0x00000000)  returns 0x00 (0000ms, 8698ms total)
T128D0 2852:707 JLINK_WriteReg(R8, 0x00000000)  returns 0x00 (0000ms, 8698ms total)
T128D0 2852:707 JLINK_WriteReg(R9, 0x20000230)  returns 0x00 (0000ms, 8698ms total)
T128D0 2852:707 JLINK_WriteReg(R10, 0x00000000)  returns 0x00 (0000ms, 8698ms total)
T128D0 2852:707 JLINK_WriteReg(R11, 0x00000000)  returns 0x00 (0000ms, 8698ms total)
T128D0 2852:707 JLINK_WriteReg(R12, 0x00000000)  returns 0x00 (0000ms, 8698ms total)
T128D0 2852:707 JLINK_WriteReg(R13 (SP), 0x20002000)  returns 0x00 (0000ms, 8698ms total)
T128D0 2852:707 JLINK_WriteReg(R14, 0x20000001)  returns 0x00 (0000ms, 8698ms total)
T128D0 2852:707 JLINK_WriteReg(R15 (PC), 0x2000003C)  returns 0x00 (0000ms, 8698ms total)
T128D0 2852:707 JLINK_WriteReg(XPSR, 0x01000000)  returns 0x00 (0000ms, 8698ms total)
T128D0 2852:707 JLINK_WriteReg(MSP, 0x20002000)  returns 0x00 (0000ms, 8698ms total)
T128D0 2852:707 JLINK_WriteReg(PSP, 0x20002000)  returns 0x00 (0000ms, 8698ms total)
T128D0 2852:707 JLINK_WriteReg(CFBP, 0x00000000)  returns 0x00 (0000ms, 8698ms total)
T128D0 2852:707 JLINK_SetBPEx(Addr = 0x20000000, Type = 0xFFFFFFF2) -- CPU_ReadMem(2 bytes @ 0x20000000)  returns 0x00000001 (0001ms, 8699ms total)
T128D0 2852:708 JLINK_Go() -- CPU_WriteMem(2 bytes @ 0x20000000) -- CPU_ReadMem(4 bytes @ 0xE0001000) -- CPU_WriteMem(4 bytes @ 0xE0002008) -- CPU_WriteMem(4 bytes @ 0xE000200C) -- CPU_WriteMem(4 bytes @ 0xE0002010) -- CPU_WriteMem(4 bytes @ 0xE0002014) -- CPU_WriteMem(4 bytes @ 0xE0002018) -- CPU_WriteMem(4 bytes @ 0xE000201C) -- CPU_WriteMem(4 bytes @ 0xE0001004) (0007ms, 8706ms total)
T128D0 2852:715 JLINK_IsHalted() -- CPU_ReadMem(2 bytes @ 0x20000000)  returns TRUE (0006ms, 8712ms total)
T128D0 2852:721 JLINK_ReadReg(R15 (PC))  returns 0x20000000 (0000ms, 8706ms total)
T128D0 2852:721 JLINK_ClrBPEx(BPHandle = 0x00000001)  returns 0x00 (0000ms, 8706ms total)
T128D0 2852:721 JLINK_ReadReg(R0)  returns 0x00000000 (0000ms, 8706ms total)
T128D0 2852:722 JLINK_WriteReg(R0, 0x00026000)  returns 0x00 (0000ms, 8706ms total)
T128D0 2852:722 JLINK_WriteReg(R1, 0x00001000)  returns 0x00 (0000ms, 8706ms total)
T128D0 2852:722 JLINK_WriteReg(R2, 0x000000FF)  returns 0x00 (0000ms, 8706ms total)
T128D0 2852:722 JLINK_WriteReg(R3, 0x00000000)  returns 0x00 (0000ms, 8706ms total)
T128D0 2852:722 JLINK_WriteReg(R4, 0x00000000)  returns 0x00 (0000ms, 8706ms total)
T128D0 2852:722 JLINK_WriteReg(R5, 0x00000000)  returns 0x00 (0000ms, 8706ms total)
T128D0 2852:722 JLINK_WriteReg(R6, 0x00000000)  returns 0x00 (0000ms, 8706ms total)
T128D0 2852:722 JLINK_WriteReg(R7, 0x00000000)  returns 0x00 (0000ms, 8706ms total)
T128D0 2852:722 JLINK_WriteReg(R8, 0x00000000)  returns 0x00 (0000ms, 8706ms total)
T128D0 2852:722 JLINK_WriteReg(R9, 0x20000230)  returns 0x00 (0000ms, 8706ms total)
T128D0 2852:722 JLINK_WriteReg(R10, 0x00000000)  returns 0x00 (0000ms, 8706ms total)
T128D0 2852:722 JLINK_WriteReg(R11, 0x00000000)  returns 0x00 (0000ms, 8706ms total)
T128D0 2852:722 JLINK_WriteReg(R12, 0x00000000)  returns 0x00 (0000ms, 8706ms total)
T128D0 2852:722 JLINK_WriteReg(R13 (SP), 0x20002000)  returns 0x00 (0000ms, 8706ms total)
T128D0 2852:722 JLINK_WriteReg(R14, 0x20000001)  returns 0x00 (0000ms, 8706ms total)
T128D0 2852:722 JLINK_WriteReg(R15 (PC), 0x2000011A)  returns 0x00 (0000ms, 8706ms total)
T128D0 2852:722 JLINK_WriteReg(XPSR, 0x01000000)  returns 0x00 (0000ms, 8706ms total)
T128D0 2852:722 JLINK_WriteReg(MSP, 0x20002000)  returns 0x00 (0000ms, 8706ms total)
T128D0 2852:722 JLINK_WriteReg(PSP, 0x20002000)  returns 0x00 (0000ms, 8706ms total)
T128D0 2852:722 JLINK_WriteReg(CFBP, 0x00000000)  returns 0x00 (0000ms, 8706ms total)
T128D0 2852:722 JLINK_SetBPEx(Addr = 0x20000000, Type = 0xFFFFFFF2)  returns 0x00000002 (0000ms, 8706ms total)
T128D0 2852:722 JLINK_Go() -- CPU_ReadMem(4 bytes @ 0xE0001000) (0004ms, 8710ms total)
T128D0 2852:726 JLINK_IsHalted() -- CPU_ReadMem(2 bytes @ 0x20000000)  returns TRUE (0006ms, 8716ms total)
T128D0 2852:732 JLINK_ReadReg(R15 (PC))  returns 0x20000000 (0000ms, 8710ms total)
T128D0 2852:732 JLINK_ClrBPEx(BPHandle = 0x00000002)  returns 0x00 (0000ms, 8710ms total)
T128D0 2852:732 JLINK_ReadReg(R0)  returns 0x00000001 (0000ms, 8710ms total)
T128D0 2852:732 JLINK_WriteReg(R0, 0x00026000)  returns 0x00 (0001ms, 8711ms total)
T128D0 2852:733 JLINK_WriteReg(R1, 0x00001000)  returns 0x00 (0000ms, 8711ms total)
T128D0 2852:733 JLINK_WriteReg(R2, 0x000000FF)  returns 0x00 (0000ms, 8711ms total)
T128D0 2852:733 JLINK_WriteReg(R3, 0x00000000)  returns 0x00 (0000ms, 8711ms total)
T128D0 2852:733 JLINK_WriteReg(R4, 0x00000000)  returns 0x00 (0000ms, 8711ms total)
T128D0 2852:733 JLINK_WriteReg(R5, 0x00000000)  returns 0x00 (0000ms, 8711ms total)
T128D0 2852:733 JLINK_WriteReg(R6, 0x00000000)  returns 0x00 (0000ms, 8711ms total)
T128D0 2852:733 JLINK_WriteReg(R7, 0x00000000)  returns 0x00 (0000ms, 8711ms total)
T128D0 2852:733 JLINK_WriteReg(R8, 0x00000000)  returns 0x00 (0000ms, 8711ms total)
T128D0 2852:733 JLINK_WriteReg(R9, 0x20000230)  returns 0x00 (0000ms, 8711ms total)
T128D0 2852:733 JLINK_WriteReg(R10, 0x00000000)  returns 0x00 (0000ms, 8711ms total)
T128D0 2852:733 JLINK_WriteReg(R11, 0x00000000)  returns 0x00 (0000ms, 8711ms total)
T128D0 2852:733 JLINK_WriteReg(R12, 0x00000000)  returns 0x00 (0000ms, 8711ms total)
T128D0 2852:733 JLINK_WriteReg(R13 (SP), 0x20002000)  returns 0x00 (0000ms, 8711ms total)
T128D0 2852:733 JLINK_WriteReg(R14, 0x20000001)  returns 0x00 (0000ms, 8711ms total)
T128D0 2852:733 JLINK_WriteReg(R15 (PC), 0x200000D8)  returns 0x00 (0000ms, 8711ms total)
T128D0 2852:733 JLINK_WriteReg(XPSR, 0x01000000)  returns 0x00 (0000ms, 8711ms total)
T128D0 2852:733 JLINK_WriteReg(MSP, 0x20002000)  returns 0x00 (0000ms, 8711ms total)
T128D0 2852:733 JLINK_WriteReg(PSP, 0x20002000)  returns 0x00 (0000ms, 8711ms total)
T128D0 2852:733 JLINK_WriteReg(CFBP, 0x00000000)  returns 0x00 (0000ms, 8711ms total)
T128D0 2852:733 JLINK_SetBPEx(Addr = 0x20000000, Type = 0xFFFFFFF2)  returns 0x00000003 (0000ms, 8711ms total)
T128D0 2852:733 JLINK_Go() -- CPU_ReadMem(4 bytes @ 0xE0001000) (0002ms, 8713ms total)
T128D0 2852:735 JLINK_IsHalted()  returns FALSE (0001ms, 8714ms total)
T128D0 2852:840 JLINK_IsHalted() -- CPU_ReadMem(2 bytes @ 0x20000000)  returns TRUE (0006ms, 8719ms total)
T128D0 2852:846 JLINK_ReadReg(R15 (PC))  returns 0x20000000 (0000ms, 8713ms total)
T128D0 2852:846 JLINK_ClrBPEx(BPHandle = 0x00000003)  returns 0x00 (0000ms, 8713ms total)
T128D0 2852:846 JLINK_ReadReg(R0)  returns 0x00000000 (0000ms, 8713ms total)
T128D0 2852:847 JLINK_WriteReg(R0, 0x00027000)  returns 0x00 (0000ms, 8713ms total)
T128D0 2852:847 JLINK_WriteReg(R1, 0x00001000)  returns 0x00 (0000ms, 8713ms total)
T128D0 2852:847 JLINK_WriteReg(R2, 0x000000FF)  returns 0x00 (0000ms, 8713ms total)
T128D0 2852:847 JLINK_WriteReg(R3, 0x00000000)  returns 0x00 (0000ms, 8713ms total)
T128D0 2852:847 JLINK_WriteReg(R4, 0x00000000)  returns 0x00 (0000ms, 8713ms total)
T128D0 2852:847 JLINK_WriteReg(R5, 0x00000000)  returns 0x00 (0000ms, 8713ms total)
T128D0 2852:847 JLINK_WriteReg(R6, 0x00000000)  returns 0x00 (0000ms, 8713ms total)
T128D0 2852:847 JLINK_WriteReg(R7, 0x00000000)  returns 0x00 (0000ms, 8713ms total)
T128D0 2852:847 JLINK_WriteReg(R8, 0x00000000)  returns 0x00 (0000ms, 8713ms total)
T128D0 2852:847 JLINK_WriteReg(R9, 0x20000230)  returns 0x00 (0000ms, 8713ms total)
T128D0 2852:847 JLINK_WriteReg(R10, 0x00000000)  returns 0x00 (0000ms, 8713ms total)
T128D0 2852:847 JLINK_WriteReg(R11, 0x00000000)  returns 0x00 (0000ms, 8713ms total)
T128D0 2852:847 JLINK_WriteReg(R12, 0x00000000)  returns 0x00 (0000ms, 8713ms total)
T128D0 2852:847 JLINK_WriteReg(R13 (SP), 0x20002000)  returns 0x00 (0000ms, 8713ms total)
T128D0 2852:847 JLINK_WriteReg(R14, 0x20000001)  returns 0x00 (0000ms, 8713ms total)
T128D0 2852:847 JLINK_WriteReg(R15 (PC), 0x2000011A)  returns 0x00 (0000ms, 8713ms total)
T128D0 2852:847 JLINK_WriteReg(XPSR, 0x01000000)  returns 0x00 (0000ms, 8713ms total)
T128D0 2852:847 JLINK_WriteReg(MSP, 0x20002000)  returns 0x00 (0000ms, 8713ms total)
T128D0 2852:847 JLINK_WriteReg(PSP, 0x20002000)  returns 0x00 (0000ms, 8713ms total)
T128D0 2852:847 JLINK_WriteReg(CFBP, 0x00000000)  returns 0x00 (0000ms, 8713ms total)
T128D0 2852:847 JLINK_SetBPEx(Addr = 0x20000000, Type = 0xFFFFFFF2)  returns 0x00000004 (0000ms, 8713ms total)
T128D0 2852:847 JLINK_Go() -- CPU_ReadMem(4 bytes @ 0xE0001000) (0004ms, 8717ms total)
T128D0 2852:851 JLINK_IsHalted() -- CPU_ReadMem(2 bytes @ 0x20000000)  returns TRUE (0006ms, 8723ms total)
T128D0 2852:857 JLINK_ReadReg(R15 (PC))  returns 0x20000000 (0000ms, 8717ms total)
T128D0 2852:857 JLINK_ClrBPEx(BPHandle = 0x00000004)  returns 0x00 (0000ms, 8717ms total)
T128D0 2852:857 JLINK_ReadReg(R0)  returns 0x00000001 (0000ms, 8717ms total)
T128D0 2852:857 JLINK_WriteReg(R0, 0x00027000)  returns 0x00 (0000ms, 8717ms total)
T128D0 2852:857 JLINK_WriteReg(R1, 0x00001000)  returns 0x00 (0000ms, 8717ms total)
T128D0 2852:857 JLINK_WriteReg(R2, 0x000000FF)  returns 0x00 (0000ms, 8717ms total)
T128D0 2852:857 JLINK_WriteReg(R3, 0x00000000)  returns 0x00 (0000ms, 8717ms total)
T128D0 2852:857 JLINK_WriteReg(R4, 0x00000000)  returns 0x00 (0000ms, 8717ms total)
T128D0 2852:857 JLINK_WriteReg(R5, 0x00000000)  returns 0x00 (0000ms, 8717ms total)
T128D0 2852:857 JLINK_WriteReg(R6, 0x00000000)  returns 0x00 (0000ms, 8717ms total)
T128D0 2852:857 JLINK_WriteReg(R7, 0x00000000)  returns 0x00 (0000ms, 8717ms total)
T128D0 2852:858 JLINK_WriteReg(R8, 0x00000000)  returns 0x00 (0000ms, 8718ms total)
T128D0 2852:858 JLINK_WriteReg(R9, 0x20000230)  returns 0x00 (0000ms, 8718ms total)
T128D0 2852:858 JLINK_WriteReg(R10, 0x00000000)  returns 0x00 (0000ms, 8718ms total)
T128D0 2852:858 JLINK_WriteReg(R11, 0x00000000)  returns 0x00 (0000ms, 8718ms total)
T128D0 2852:858 JLINK_WriteReg(R12, 0x00000000)  returns 0x00 (0000ms, 8718ms total)
T128D0 2852:858 JLINK_WriteReg(R13 (SP), 0x20002000)  returns 0x00 (0000ms, 8718ms total)
T128D0 2852:858 JLINK_WriteReg(R14, 0x20000001)  returns 0x00 (0000ms, 8718ms total)
T128D0 2852:858 JLINK_WriteReg(R15 (PC), 0x200000D8)  returns 0x00 (0000ms, 8718ms total)
T128D0 2852:858 JLINK_WriteReg(XPSR, 0x01000000)  returns 0x00 (0000ms, 8718ms total)
T128D0 2852:858 JLINK_WriteReg(MSP, 0x20002000)  returns 0x00 (0000ms, 8718ms total)
T128D0 2852:858 JLINK_WriteReg(PSP, 0x20002000)  returns 0x00 (0000ms, 8718ms total)
T128D0 2852:858 JLINK_WriteReg(CFBP, 0x00000000)  returns 0x00 (0000ms, 8718ms total)
T128D0 2852:858 JLINK_SetBPEx(Addr = 0x20000000, Type = 0xFFFFFFF2)  returns 0x00000005 (0000ms, 8718ms total)
T128D0 2852:858 JLINK_Go() -- CPU_ReadMem(4 bytes @ 0xE0001000) (0002ms, 8720ms total)
T128D0 2852:860 JLINK_IsHalted()  returns FALSE (0000ms, 8720ms total)
T128D0 2852:915 JLINK_IsHalted() -- CPU_ReadMem(2 bytes @ 0x20000000)  returns TRUE (0006ms, 8726ms total)
T128D0 2852:921 JLINK_ReadReg(R15 (PC))  returns 0x20000000 (0000ms, 8720ms total)
T128D0 2852:921 JLINK_ClrBPEx(BPHandle = 0x00000005)  returns 0x00 (0000ms, 8720ms total)
T128D0 2852:921 JLINK_ReadReg(R0)  returns 0x00000000 (0000ms, 8720ms total)
T128D0 2852:922 JLINK_WriteReg(R0, 0x00028000)  returns 0x00 (0000ms, 8720ms total)
T128D0 2852:922 JLINK_WriteReg(R1, 0x00001000)  returns 0x00 (0000ms, 8720ms total)
T128D0 2852:922 JLINK_WriteReg(R2, 0x000000FF)  returns 0x00 (0000ms, 8720ms total)
T128D0 2852:922 JLINK_WriteReg(R3, 0x00000000)  returns 0x00 (0000ms, 8720ms total)
T128D0 2852:922 JLINK_WriteReg(R4, 0x00000000)  returns 0x00 (0000ms, 8720ms total)
T128D0 2852:922 JLINK_WriteReg(R5, 0x00000000)  returns 0x00 (0000ms, 8720ms total)
T128D0 2852:922 JLINK_WriteReg(R6, 0x00000000)  returns 0x00 (0000ms, 8720ms total)
T128D0 2852:922 JLINK_WriteReg(R7, 0x00000000)  returns 0x00 (0000ms, 8720ms total)
T128D0 2852:922 JLINK_WriteReg(R8, 0x00000000)  returns 0x00 (0000ms, 8720ms total)
T128D0 2852:922 JLINK_WriteReg(R9, 0x20000230)  returns 0x00 (0000ms, 8720ms total)
T128D0 2852:922 JLINK_WriteReg(R10, 0x00000000)  returns 0x00 (0000ms, 8720ms total)
T128D0 2852:922 JLINK_WriteReg(R11, 0x00000000)  returns 0x00 (0000ms, 8720ms total)
T128D0 2852:922 JLINK_WriteReg(R12, 0x00000000)  returns 0x00 (0000ms, 8720ms total)
T128D0 2852:922 JLINK_WriteReg(R13 (SP), 0x20002000)  returns 0x00 (0000ms, 8720ms total)
T128D0 2852:922 JLINK_WriteReg(R14, 0x20000001)  returns 0x00 (0000ms, 8720ms total)
T128D0 2852:922 JLINK_WriteReg(R15 (PC), 0x2000011A)  returns 0x00 (0000ms, 8720ms total)
T128D0 2852:922 JLINK_WriteReg(XPSR, 0x01000000)  returns 0x00 (0000ms, 8720ms total)
T128D0 2852:922 JLINK_WriteReg(MSP, 0x20002000)  returns 0x00 (0000ms, 8720ms total)
T128D0 2852:922 JLINK_WriteReg(PSP, 0x20002000)  returns 0x00 (0000ms, 8720ms total)
T128D0 2852:922 JLINK_WriteReg(CFBP, 0x00000000)  returns 0x00 (0000ms, 8720ms total)
T128D0 2852:922 JLINK_SetBPEx(Addr = 0x20000000, Type = 0xFFFFFFF2)  returns 0x00000006 (0000ms, 8720ms total)
T128D0 2852:922 JLINK_Go() -- CPU_ReadMem(4 bytes @ 0xE0001000) (0004ms, 8724ms total)
T128D0 2852:926 JLINK_IsHalted() -- CPU_ReadMem(2 bytes @ 0x20000000)  returns TRUE (0006ms, 8730ms total)
T128D0 2852:932 JLINK_ReadReg(R15 (PC))  returns 0x20000000 (0000ms, 8724ms total)
T128D0 2852:932 JLINK_ClrBPEx(BPHandle = 0x00000006)  returns 0x00 (0000ms, 8724ms total)
T128D0 2852:932 JLINK_ReadReg(R0)  returns 0x00000001 (0000ms, 8724ms total)
T128D0 2852:932 JLINK_WriteReg(R0, 0x00028000)  returns 0x00 (0000ms, 8724ms total)
T128D0 2852:932 JLINK_WriteReg(R1, 0x00001000)  returns 0x00 (0000ms, 8724ms total)
T128D0 2852:932 JLINK_WriteReg(R2, 0x000000FF)  returns 0x00 (0000ms, 8724ms total)
T128D0 2852:932 JLINK_WriteReg(R3, 0x00000000)  returns 0x00 (0000ms, 8724ms total)
T128D0 2852:932 JLINK_WriteReg(R4, 0x00000000)  returns 0x00 (0000ms, 8724ms total)
T128D0 2852:932 JLINK_WriteReg(R5, 0x00000000)  returns 0x00 (0000ms, 8724ms total)
T128D0 2852:932 JLINK_WriteReg(R6, 0x00000000)  returns 0x00 (0000ms, 8724ms total)
T128D0 2852:932 JLINK_WriteReg(R7, 0x00000000)  returns 0x00 (0000ms, 8724ms total)
T128D0 2852:932 JLINK_WriteReg(R8, 0x00000000)  returns 0x00 (0000ms, 8724ms total)
T128D0 2852:932 JLINK_WriteReg(R9, 0x20000230)  returns 0x00 (0000ms, 8724ms total)
T128D0 2852:933 JLINK_WriteReg(R10, 0x00000000)  returns 0x00 (0000ms, 8724ms total)
T128D0 2852:933 JLINK_WriteReg(R11, 0x00000000)  returns 0x00 (0000ms, 8724ms total)
T128D0 2852:933 JLINK_WriteReg(R12, 0x00000000)  returns 0x00 (0000ms, 8724ms total)
T128D0 2852:933 JLINK_WriteReg(R13 (SP), 0x20002000)  returns 0x00 (0000ms, 8724ms total)
T128D0 2852:933 JLINK_WriteReg(R14, 0x20000001)  returns 0x00 (0000ms, 8724ms total)
T128D0 2852:933 JLINK_WriteReg(R15 (PC), 0x200000D8)  returns 0x00 (0000ms, 8724ms total)
T128D0 2852:933 JLINK_WriteReg(XPSR, 0x01000000)  returns 0x00 (0000ms, 8724ms total)
T128D0 2852:933 JLINK_WriteReg(MSP, 0x20002000)  returns 0x00 (0000ms, 8724ms total)
T128D0 2852:933 JLINK_WriteReg(PSP, 0x20002000)  returns 0x00 (0000ms, 8724ms total)
T128D0 2852:933 JLINK_WriteReg(CFBP, 0x00000000)  returns 0x00 (0000ms, 8724ms total)
T128D0 2852:933 JLINK_SetBPEx(Addr = 0x20000000, Type = 0xFFFFFFF2)  returns 0x00000007 (0000ms, 8724ms total)
T128D0 2852:933 JLINK_Go() -- CPU_ReadMem(4 bytes @ 0xE0001000) (0002ms, 8726ms total)
T128D0 2852:935 JLINK_IsHalted()  returns FALSE (0000ms, 8726ms total)
T128D0 2852:937 JLINK_IsHalted() -- CPU_ReadMem(2 bytes @ 0x20000000)  returns TRUE (0006ms, 8732ms total)
T128D0 2852:943 JLINK_ReadReg(R15 (PC))  returns 0x20000000 (0000ms, 8726ms total)
T128D0 2852:943 JLINK_ClrBPEx(BPHandle = 0x00000007)  returns 0x00 (0000ms, 8726ms total)
T128D0 2852:943 JLINK_ReadReg(R0)  returns 0x00000000 (0000ms, 8726ms total)
T128D0 2852:944 JLINK_WriteReg(R0, 0x00029000)  returns 0x00 (0000ms, 8726ms total)
T128D0 2852:944 JLINK_WriteReg(R1, 0x00001000)  returns 0x00 (0000ms, 8726ms total)
T128D0 2852:944 JLINK_WriteReg(R2, 0x000000FF)  returns 0x00 (0000ms, 8726ms total)
T128D0 2852:944 JLINK_WriteReg(R3, 0x00000000)  returns 0x00 (0000ms, 8726ms total)
T128D0 2852:944 JLINK_WriteReg(R4, 0x00000000)  returns 0x00 (0000ms, 8726ms total)
T128D0 2852:944 JLINK_WriteReg(R5, 0x00000000)  returns 0x00 (0000ms, 8726ms total)
T128D0 2852:944 JLINK_WriteReg(R6, 0x00000000)  returns 0x00 (0000ms, 8726ms total)
T128D0 2852:944 JLINK_WriteReg(R7, 0x00000000)  returns 0x00 (0000ms, 8726ms total)
T128D0 2852:944 JLINK_WriteReg(R8, 0x00000000)  returns 0x00 (0000ms, 8726ms total)
T128D0 2852:944 JLINK_WriteReg(R9, 0x20000230)  returns 0x00 (0000ms, 8726ms total)
T128D0 2852:944 JLINK_WriteReg(R10, 0x00000000)  returns 0x00 (0000ms, 8726ms total)
T128D0 2852:944 JLINK_WriteReg(R11, 0x00000000)  returns 0x00 (0000ms, 8726ms total)
T128D0 2852:944 JLINK_WriteReg(R12, 0x00000000)  returns 0x00 (0000ms, 8726ms total)
T128D0 2852:944 JLINK_WriteReg(R13 (SP), 0x20002000)  returns 0x00 (0000ms, 8726ms total)
T128D0 2852:944 JLINK_WriteReg(R14, 0x20000001)  returns 0x00 (0000ms, 8726ms total)
T128D0 2852:944 JLINK_WriteReg(R15 (PC), 0x2000011A)  returns 0x00 (0000ms, 8726ms total)
T128D0 2852:944 JLINK_WriteReg(XPSR, 0x01000000)  returns 0x00 (0000ms, 8726ms total)
T128D0 2852:944 JLINK_WriteReg(MSP, 0x20002000)  returns 0x00 (0000ms, 8726ms total)
T128D0 2852:944 JLINK_WriteReg(PSP, 0x20002000)  returns 0x00 (0000ms, 8726ms total)
T128D0 2852:944 JLINK_WriteReg(CFBP, 0x00000000)  returns 0x00 (0001ms, 8727ms total)
T128D0 2852:945 JLINK_SetBPEx(Addr = 0x20000000, Type = 0xFFFFFFF2)  returns 0x00000008 (0000ms, 8727ms total)
T128D0 2852:945 JLINK_Go() -- CPU_ReadMem(4 bytes @ 0xE0001000) (0003ms, 8730ms total)
T128D0 2852:948 JLINK_IsHalted() -- CPU_ReadMem(2 bytes @ 0x20000000)  returns TRUE (0006ms, 8736ms total)
T128D0 2852:954 JLINK_ReadReg(R15 (PC))  returns 0x20000000 (0000ms, 8730ms total)
T128D0 2852:954 JLINK_ClrBPEx(BPHandle = 0x00000008)  returns 0x00 (0001ms, 8731ms total)
T128D0 2852:955 JLINK_ReadReg(R0)  returns 0x00000001 (0000ms, 8731ms total)
T128D0 2852:955 JLINK_WriteReg(R0, 0x00029000)  returns 0x00 (0000ms, 8731ms total)
T128D0 2852:955 JLINK_WriteReg(R1, 0x00001000)  returns 0x00 (0000ms, 8731ms total)
T128D0 2852:955 JLINK_WriteReg(R2, 0x000000FF)  returns 0x00 (0000ms, 8731ms total)
T128D0 2852:955 JLINK_WriteReg(R3, 0x00000000)  returns 0x00 (0000ms, 8731ms total)
T128D0 2852:955 JLINK_WriteReg(R4, 0x00000000)  returns 0x00 (0000ms, 8731ms total)
T128D0 2852:955 JLINK_WriteReg(R5, 0x00000000)  returns 0x00 (0000ms, 8731ms total)
T128D0 2852:955 JLINK_WriteReg(R6, 0x00000000)  returns 0x00 (0000ms, 8731ms total)
T128D0 2852:955 JLINK_WriteReg(R7, 0x00000000)  returns 0x00 (0000ms, 8731ms total)
T128D0 2852:955 JLINK_WriteReg(R8, 0x00000000)  returns 0x00 (0000ms, 8731ms total)
T128D0 2852:955 JLINK_WriteReg(R9, 0x20000230)  returns 0x00 (0000ms, 8731ms total)
T128D0 2852:955 JLINK_WriteReg(R10, 0x00000000)  returns 0x00 (0000ms, 8731ms total)
T128D0 2852:955 JLINK_WriteReg(R11, 0x00000000)  returns 0x00 (0000ms, 8731ms total)
T128D0 2852:955 JLINK_WriteReg(R12, 0x00000000)  returns 0x00 (0000ms, 8731ms total)
T128D0 2852:955 JLINK_WriteReg(R13 (SP), 0x20002000)  returns 0x00 (0000ms, 8731ms total)
T128D0 2852:955 JLINK_WriteReg(R14, 0x20000001)  returns 0x00 (0000ms, 8731ms total)
T128D0 2852:955 JLINK_WriteReg(R15 (PC), 0x200000D8)  returns 0x00 (0000ms, 8731ms total)
T128D0 2852:955 JLINK_WriteReg(XPSR, 0x01000000)  returns 0x00 (0000ms, 8731ms total)
T128D0 2852:955 JLINK_WriteReg(MSP, 0x20002000)  returns 0x00 (0000ms, 8731ms total)
T128D0 2852:955 JLINK_WriteReg(PSP, 0x20002000)  returns 0x00 (0000ms, 8731ms total)
T128D0 2852:955 JLINK_WriteReg(CFBP, 0x00000000)  returns 0x00 (0000ms, 8731ms total)
T128D0 2852:955 JLINK_SetBPEx(Addr = 0x20000000, Type = 0xFFFFFFF2)  returns 0x00000009 (0000ms, 8731ms total)
T128D0 2852:955 JLINK_Go() -- CPU_ReadMem(4 bytes @ 0xE0001000) (0002ms, 8733ms total)
T128D0 2852:957 JLINK_IsHalted()  returns FALSE (0001ms, 8734ms total)
T128D0 2852:960 JLINK_IsHalted() -- CPU_ReadMem(2 bytes @ 0x20000000)  returns TRUE (0006ms, 8739ms total)
T128D0 2852:966 JLINK_ReadReg(R15 (PC))  returns 0x20000000 (0000ms, 8733ms total)
T128D0 2852:966 JLINK_ClrBPEx(BPHandle = 0x00000009)  returns 0x00 (0000ms, 8733ms total)
T128D0 2852:966 JLINK_ReadReg(R0)  returns 0x00000000 (0000ms, 8733ms total)
T128D0 2852:967 JLINK_WriteReg(R0, 0x0002A000)  returns 0x00 (0000ms, 8733ms total)
T128D0 2852:967 JLINK_WriteReg(R1, 0x00001000)  returns 0x00 (0000ms, 8733ms total)
T128D0 2852:967 JLINK_WriteReg(R2, 0x000000FF)  returns 0x00 (0000ms, 8733ms total)
T128D0 2852:967 JLINK_WriteReg(R3, 0x00000000)  returns 0x00 (0000ms, 8733ms total)
T128D0 2852:967 JLINK_WriteReg(R4, 0x00000000)  returns 0x00 (0000ms, 8733ms total)
T128D0 2852:967 JLINK_WriteReg(R5, 0x00000000)  returns 0x00 (0000ms, 8733ms total)
T128D0 2852:967 JLINK_WriteReg(R6, 0x00000000)  returns 0x00 (0000ms, 8733ms total)
T128D0 2852:967 JLINK_WriteReg(R7, 0x00000000)  returns 0x00 (0000ms, 8733ms total)
T128D0 2852:967 JLINK_WriteReg(R8, 0x00000000)  returns 0x00 (0000ms, 8733ms total)
T128D0 2852:967 JLINK_WriteReg(R9, 0x20000230)  returns 0x00 (0000ms, 8733ms total)
T128D0 2852:967 JLINK_WriteReg(R10, 0x00000000)  returns 0x00 (0000ms, 8733ms total)
T128D0 2852:967 JLINK_WriteReg(R11, 0x00000000)  returns 0x00 (0000ms, 8733ms total)
T128D0 2852:967 JLINK_WriteReg(R12, 0x00000000)  returns 0x00 (0000ms, 8733ms total)
T128D0 2852:967 JLINK_WriteReg(R13 (SP), 0x20002000)  returns 0x00 (0000ms, 8733ms total)
T128D0 2852:967 JLINK_WriteReg(R14, 0x20000001)  returns 0x00 (0000ms, 8733ms total)
T128D0 2852:967 JLINK_WriteReg(R15 (PC), 0x2000011A)  returns 0x00 (0000ms, 8733ms total)
T128D0 2852:967 JLINK_WriteReg(XPSR, 0x01000000)  returns 0x00 (0000ms, 8733ms total)
T128D0 2852:967 JLINK_WriteReg(MSP, 0x20002000)  returns 0x00 (0000ms, 8733ms total)
T128D0 2852:967 JLINK_WriteReg(PSP, 0x20002000)  returns 0x00 (0000ms, 8733ms total)
T128D0 2852:967 JLINK_WriteReg(CFBP, 0x00000000)  returns 0x00 (0000ms, 8733ms total)
T128D0 2852:967 JLINK_SetBPEx(Addr = 0x20000000, Type = 0xFFFFFFF2)  returns 0x0000000A (0000ms, 8733ms total)
T128D0 2852:967 JLINK_Go() -- CPU_ReadMem(4 bytes @ 0xE0001000) (0003ms, 8736ms total)
T128D0 2852:970 JLINK_IsHalted() -- CPU_ReadMem(2 bytes @ 0x20000000)  returns TRUE (0007ms, 8743ms total)
T128D0 2852:977 JLINK_ReadReg(R15 (PC))  returns 0x20000000 (0000ms, 8736ms total)
T128D0 2852:977 JLINK_ClrBPEx(BPHandle = 0x0000000A)  returns 0x00 (0000ms, 8736ms total)
T128D0 2852:977 JLINK_ReadReg(R0)  returns 0x00000001 (0000ms, 8736ms total)
T128D0 2852:977 JLINK_WriteReg(R0, 0x0002A000)  returns 0x00 (0000ms, 8736ms total)
T128D0 2852:977 JLINK_WriteReg(R1, 0x00001000)  returns 0x00 (0000ms, 8736ms total)
T128D0 2852:977 JLINK_WriteReg(R2, 0x000000FF)  returns 0x00 (0000ms, 8736ms total)
T128D0 2852:977 JLINK_WriteReg(R3, 0x00000000)  returns 0x00 (0000ms, 8736ms total)
T128D0 2852:977 JLINK_WriteReg(R4, 0x00000000)  returns 0x00 (0000ms, 8736ms total)
T128D0 2852:977 JLINK_WriteReg(R5, 0x00000000)  returns 0x00 (0000ms, 8736ms total)
T128D0 2852:977 JLINK_WriteReg(R6, 0x00000000)  returns 0x00 (0000ms, 8736ms total)
T128D0 2852:977 JLINK_WriteReg(R7, 0x00000000)  returns 0x00 (0000ms, 8736ms total)
T128D0 2852:977 JLINK_WriteReg(R8, 0x00000000)  returns 0x00 (0000ms, 8736ms total)
T128D0 2852:977 JLINK_WriteReg(R9, 0x20000230)  returns 0x00 (0000ms, 8736ms total)
T128D0 2852:977 JLINK_WriteReg(R10, 0x00000000)  returns 0x00 (0000ms, 8736ms total)
T128D0 2852:977 JLINK_WriteReg(R11, 0x00000000)  returns 0x00 (0000ms, 8736ms total)
T128D0 2852:977 JLINK_WriteReg(R12, 0x00000000)  returns 0x00 (0000ms, 8736ms total)
T128D0 2852:977 JLINK_WriteReg(R13 (SP), 0x20002000)  returns 0x00 (0000ms, 8736ms total)
T128D0 2852:977 JLINK_WriteReg(R14, 0x20000001)  returns 0x00 (0000ms, 8736ms total)
T128D0 2852:977 JLINK_WriteReg(R15 (PC), 0x200000D8)  returns 0x00 (0000ms, 8736ms total)
T128D0 2852:977 JLINK_WriteReg(XPSR, 0x01000000)  returns 0x00 (0000ms, 8736ms total)
T128D0 2852:977 JLINK_WriteReg(MSP, 0x20002000)  returns 0x00 (0000ms, 8736ms total)
T128D0 2852:977 JLINK_WriteReg(PSP, 0x20002000)  returns 0x00 (0000ms, 8736ms total)
T128D0 2852:977 JLINK_WriteReg(CFBP, 0x00000000)  returns 0x00 (0000ms, 8736ms total)
T128D0 2852:977 JLINK_SetBPEx(Addr = 0x20000000, Type = 0xFFFFFFF2)  returns 0x0000000B (0000ms, 8736ms total)
T128D0 2852:977 JLINK_Go() -- CPU_ReadMem(4 bytes @ 0xE0001000) (0003ms, 8739ms total)
T128D0 2852:980 JLINK_IsHalted()  returns FALSE (0000ms, 8739ms total)
T128D0 2852:984 JLINK_IsHalted() -- CPU_ReadMem(2 bytes @ 0x20000000)  returns TRUE (0006ms, 8745ms total)
T128D0 2852:990 JLINK_ReadReg(R15 (PC))  returns 0x20000000 (0000ms, 8739ms total)
T128D0 2852:990 JLINK_ClrBPEx(BPHandle = 0x0000000B)  returns 0x00 (0000ms, 8739ms total)
T128D0 2852:990 JLINK_ReadReg(R0)  returns 0x00000000 (0000ms, 8739ms total)
T128D0 2852:991 JLINK_WriteReg(R0, 0x0002B000)  returns 0x00 (0000ms, 8739ms total)
T128D0 2852:991 JLINK_WriteReg(R1, 0x00001000)  returns 0x00 (0000ms, 8739ms total)
T128D0 2852:991 JLINK_WriteReg(R2, 0x000000FF)  returns 0x00 (0000ms, 8739ms total)
T128D0 2852:991 JLINK_WriteReg(R3, 0x00000000)  returns 0x00 (0000ms, 8739ms total)
T128D0 2852:991 JLINK_WriteReg(R4, 0x00000000)  returns 0x00 (0000ms, 8739ms total)
T128D0 2852:991 JLINK_WriteReg(R5, 0x00000000)  returns 0x00 (0000ms, 8739ms total)
T128D0 2852:991 JLINK_WriteReg(R6, 0x00000000)  returns 0x00 (0000ms, 8739ms total)
T128D0 2852:991 JLINK_WriteReg(R7, 0x00000000)  returns 0x00 (0000ms, 8739ms total)
T128D0 2852:991 JLINK_WriteReg(R8, 0x00000000)  returns 0x00 (0000ms, 8739ms total)
T128D0 2852:991 JLINK_WriteReg(R9, 0x20000230)  returns 0x00 (0000ms, 8739ms total)
T128D0 2852:991 JLINK_WriteReg(R10, 0x00000000)  returns 0x00 (0000ms, 8739ms total)
T128D0 2852:991 JLINK_WriteReg(R11, 0x00000000)  returns 0x00 (0000ms, 8739ms total)
T128D0 2852:991 JLINK_WriteReg(R12, 0x00000000)  returns 0x00 (0000ms, 8739ms total)
T128D0 2852:991 JLINK_WriteReg(R13 (SP), 0x20002000)  returns 0x00 (0000ms, 8739ms total)
T128D0 2852:991 JLINK_WriteReg(R14, 0x20000001)  returns 0x00 (0000ms, 8739ms total)
T128D0 2852:991 JLINK_WriteReg(R15 (PC), 0x2000011A)  returns 0x00 (0000ms, 8739ms total)
T128D0 2852:991 JLINK_WriteReg(XPSR, 0x01000000)  returns 0x00 (0000ms, 8739ms total)
T128D0 2852:991 JLINK_WriteReg(MSP, 0x20002000)  returns 0x00 (0000ms, 8739ms total)
T128D0 2852:991 JLINK_WriteReg(PSP, 0x20002000)  returns 0x00 (0000ms, 8739ms total)
T128D0 2852:991 JLINK_WriteReg(CFBP, 0x00000000)  returns 0x00 (0000ms, 8739ms total)
T128D0 2852:991 JLINK_SetBPEx(Addr = 0x20000000, Type = 0xFFFFFFF2)  returns 0x0000000C (0000ms, 8739ms total)
T128D0 2852:991 JLINK_Go() -- CPU_ReadMem(4 bytes @ 0xE0001000) (0004ms, 8743ms total)
T128D0 2852:995 JLINK_IsHalted() -- CPU_ReadMem(2 bytes @ 0x20000000)  returns TRUE (0007ms, 8750ms total)
T128D0 2853:002 JLINK_ReadReg(R15 (PC))  returns 0x20000000 (0000ms, 8743ms total)
T128D0 2853:002 JLINK_ClrBPEx(BPHandle = 0x0000000C)  returns 0x00 (0000ms, 8743ms total)
T128D0 2853:002 JLINK_ReadReg(R0)  returns 0x00000001 (0000ms, 8743ms total)
T128D0 2853:002 JLINK_WriteReg(R0, 0x0002B000)  returns 0x00 (0000ms, 8743ms total)
T128D0 2853:002 JLINK_WriteReg(R1, 0x00001000)  returns 0x00 (0000ms, 8743ms total)
T128D0 2853:002 JLINK_WriteReg(R2, 0x000000FF)  returns 0x00 (0000ms, 8743ms total)
T128D0 2853:002 JLINK_WriteReg(R3, 0x00000000)  returns 0x00 (0000ms, 8743ms total)
T128D0 2853:002 JLINK_WriteReg(R4, 0x00000000)  returns 0x00 (0000ms, 8743ms total)
T128D0 2853:002 JLINK_WriteReg(R5, 0x00000000)  returns 0x00 (0000ms, 8743ms total)
T128D0 2853:002 JLINK_WriteReg(R6, 0x00000000)  returns 0x00 (0000ms, 8743ms total)
T128D0 2853:002 JLINK_WriteReg(R7, 0x00000000)  returns 0x00 (0000ms, 8743ms total)
T128D0 2853:002 JLINK_WriteReg(R8, 0x00000000)  returns 0x00 (0000ms, 8743ms total)
T128D0 2853:002 JLINK_WriteReg(R9, 0x20000230)  returns 0x00 (0000ms, 8743ms total)
T128D0 2853:002 JLINK_WriteReg(R10, 0x00000000)  returns 0x00 (0000ms, 8743ms total)
T128D0 2853:002 JLINK_WriteReg(R11, 0x00000000)  returns 0x00 (0000ms, 8743ms total)
T128D0 2853:002 JLINK_WriteReg(R12, 0x00000000)  returns 0x00 (0000ms, 8743ms total)
T128D0 2853:002 JLINK_WriteReg(R13 (SP), 0x20002000)  returns 0x00 (0000ms, 8743ms total)
T128D0 2853:002 JLINK_WriteReg(R14, 0x20000001)  returns 0x00 (0000ms, 8743ms total)
T128D0 2853:002 JLINK_WriteReg(R15 (PC), 0x200000D8)  returns 0x00 (0000ms, 8743ms total)
T128D0 2853:002 JLINK_WriteReg(XPSR, 0x01000000)  returns 0x00 (0000ms, 8743ms total)
T128D0 2853:002 JLINK_WriteReg(MSP, 0x20002000)  returns 0x00 (0000ms, 8743ms total)
T128D0 2853:002 JLINK_WriteReg(PSP, 0x20002000)  returns 0x00 (0000ms, 8743ms total)
T128D0 2853:002 JLINK_WriteReg(CFBP, 0x00000000)  returns 0x00 (0000ms, 8743ms total)
T128D0 2853:002 JLINK_SetBPEx(Addr = 0x20000000, Type = 0xFFFFFFF2)  returns 0x0000000D (0000ms, 8743ms total)
T128D0 2853:002 JLINK_Go() -- CPU_ReadMem(4 bytes @ 0xE0001000) (0002ms, 8745ms total)
T128D0 2853:004 JLINK_IsHalted()  returns FALSE (0001ms, 8746ms total)
T128D0 2853:007 JLINK_IsHalted() -- CPU_ReadMem(2 bytes @ 0x20000000)  returns TRUE (0007ms, 8752ms total)
T128D0 2853:014 JLINK_ReadReg(R15 (PC))  returns 0x20000000 (0000ms, 8745ms total)
T128D0 2853:014 JLINK_ClrBPEx(BPHandle = 0x0000000D)  returns 0x00 (0000ms, 8745ms total)
T128D0 2853:014 JLINK_ReadReg(R0)  returns 0x00000000 (0000ms, 8745ms total)
T128D0 2853:014 JLINK_WriteReg(R0, 0x0002C000)  returns 0x00 (0000ms, 8745ms total)
T128D0 2853:014 JLINK_WriteReg(R1, 0x00001000)  returns 0x00 (0000ms, 8745ms total)
T128D0 2853:014 JLINK_WriteReg(R2, 0x000000FF)  returns 0x00 (0000ms, 8745ms total)
T128D0 2853:014 JLINK_WriteReg(R3, 0x00000000)  returns 0x00 (0000ms, 8745ms total)
T128D0 2853:014 JLINK_WriteReg(R4, 0x00000000)  returns 0x00 (0000ms, 8745ms total)
T128D0 2853:014 JLINK_WriteReg(R5, 0x00000000)  returns 0x00 (0000ms, 8745ms total)
T128D0 2853:014 JLINK_WriteReg(R6, 0x00000000)  returns 0x00 (0000ms, 8745ms total)
T128D0 2853:014 JLINK_WriteReg(R7, 0x00000000)  returns 0x00 (0000ms, 8745ms total)
T128D0 2853:014 JLINK_WriteReg(R8, 0x00000000)  returns 0x00 (0000ms, 8745ms total)
T128D0 2853:014 JLINK_WriteReg(R9, 0x20000230)  returns 0x00 (0000ms, 8745ms total)
T128D0 2853:014 JLINK_WriteReg(R10, 0x00000000)  returns 0x00 (0000ms, 8745ms total)
T128D0 2853:014 JLINK_WriteReg(R11, 0x00000000)  returns 0x00 (0000ms, 8745ms total)
T128D0 2853:014 JLINK_WriteReg(R12, 0x00000000)  returns 0x00 (0000ms, 8745ms total)
T128D0 2853:014 JLINK_WriteReg(R13 (SP), 0x20002000)  returns 0x00 (0000ms, 8745ms total)
T128D0 2853:014 JLINK_WriteReg(R14, 0x20000001)  returns 0x00 (0000ms, 8745ms total)
T128D0 2853:014 JLINK_WriteReg(R15 (PC), 0x2000011A)  returns 0x00 (0000ms, 8745ms total)
T128D0 2853:014 JLINK_WriteReg(XPSR, 0x01000000)  returns 0x00 (0000ms, 8745ms total)
T128D0 2853:014 JLINK_WriteReg(MSP, 0x20002000)  returns 0x00 (0000ms, 8745ms total)
T128D0 2853:014 JLINK_WriteReg(PSP, 0x20002000)  returns 0x00 (0000ms, 8745ms total)
T128D0 2853:014 JLINK_WriteReg(CFBP, 0x00000000)  returns 0x00 (0000ms, 8745ms total)
T128D0 2853:014 JLINK_SetBPEx(Addr = 0x20000000, Type = 0xFFFFFFF2)  returns 0x0000000E (0000ms, 8745ms total)
T128D0 2853:014 JLINK_Go() -- CPU_ReadMem(4 bytes @ 0xE0001000) (0003ms, 8748ms total)
T128D0 2853:017 JLINK_IsHalted() -- CPU_ReadMem(2 bytes @ 0x20000000)  returns TRUE (0007ms, 8755ms total)
T128D0 2853:024 JLINK_ReadReg(R15 (PC))  returns 0x20000000 (0000ms, 8748ms total)
T128D0 2853:024 JLINK_ClrBPEx(BPHandle = 0x0000000E)  returns 0x00 (0000ms, 8748ms total)
T128D0 2853:024 JLINK_ReadReg(R0)  returns 0x00000001 (0000ms, 8748ms total)
T128D0 2853:024 JLINK_WriteReg(R0, 0x0002C000)  returns 0x00 (0000ms, 8748ms total)
T128D0 2853:024 JLINK_WriteReg(R1, 0x00001000)  returns 0x00 (0000ms, 8748ms total)
T128D0 2853:024 JLINK_WriteReg(R2, 0x000000FF)  returns 0x00 (0000ms, 8748ms total)
T128D0 2853:024 JLINK_WriteReg(R3, 0x00000000)  returns 0x00 (0000ms, 8748ms total)
T128D0 2853:024 JLINK_WriteReg(R4, 0x00000000)  returns 0x00 (0000ms, 8748ms total)
T128D0 2853:024 JLINK_WriteReg(R5, 0x00000000)  returns 0x00 (0000ms, 8748ms total)
T128D0 2853:024 JLINK_WriteReg(R6, 0x00000000)  returns 0x00 (0000ms, 8748ms total)
T128D0 2853:024 JLINK_WriteReg(R7, 0x00000000)  returns 0x00 (0000ms, 8748ms total)
T128D0 2853:024 JLINK_WriteReg(R8, 0x00000000)  returns 0x00 (0000ms, 8748ms total)
T128D0 2853:024 JLINK_WriteReg(R9, 0x20000230)  returns 0x00 (0000ms, 8748ms total)
T128D0 2853:024 JLINK_WriteReg(R10, 0x00000000)  returns 0x00 (0000ms, 8748ms total)
T128D0 2853:024 JLINK_WriteReg(R11, 0x00000000)  returns 0x00 (0000ms, 8748ms total)
T128D0 2853:024 JLINK_WriteReg(R12, 0x00000000)  returns 0x00 (0000ms, 8748ms total)
T128D0 2853:024 JLINK_WriteReg(R13 (SP), 0x20002000)  returns 0x00 (0000ms, 8748ms total)
T128D0 2853:024 JLINK_WriteReg(R14, 0x20000001)  returns 0x00 (0000ms, 8748ms total)
T128D0 2853:024 JLINK_WriteReg(R15 (PC), 0x200000D8)  returns 0x00 (0000ms, 8748ms total)
T128D0 2853:024 JLINK_WriteReg(XPSR, 0x01000000)  returns 0x00 (0000ms, 8748ms total)
T128D0 2853:024 JLINK_WriteReg(MSP, 0x20002000)  returns 0x00 (0000ms, 8748ms total)
T128D0 2853:024 JLINK_WriteReg(PSP, 0x20002000)  returns 0x00 (0001ms, 8749ms total)
T128D0 2853:025 JLINK_WriteReg(CFBP, 0x00000000)  returns 0x00 (0000ms, 8749ms total)
T128D0 2853:025 JLINK_SetBPEx(Addr = 0x20000000, Type = 0xFFFFFFF2)  returns 0x0000000F (0000ms, 8749ms total)
T128D0 2853:025 JLINK_Go() -- CPU_ReadMem(4 bytes @ 0xE0001000) (0002ms, 8751ms total)
T128D0 2853:027 JLINK_IsHalted()  returns FALSE (0000ms, 8751ms total)
T128D0 2853:029 JLINK_IsHalted() -- CPU_ReadMem(2 bytes @ 0x20000000)  returns TRUE (0007ms, 8758ms total)
T128D0 2853:036 JLINK_ReadReg(R15 (PC))  returns 0x20000000 (0000ms, 8751ms total)
T128D0 2853:036 JLINK_ClrBPEx(BPHandle = 0x0000000F)  returns 0x00 (0000ms, 8751ms total)
T128D0 2853:036 JLINK_ReadReg(R0)  returns 0x00000000 (0000ms, 8751ms total)
T128D0 2853:036 JLINK_WriteReg(R0, 0x00000001)  returns 0x00 (0000ms, 8751ms total)
T128D0 2853:036 JLINK_WriteReg(R1, 0x00001000)  returns 0x00 (0000ms, 8751ms total)
T128D0 2853:036 JLINK_WriteReg(R2, 0x000000FF)  returns 0x00 (0000ms, 8751ms total)
T128D0 2853:036 JLINK_WriteReg(R3, 0x00000000)  returns 0x00 (0000ms, 8751ms total)
T128D0 2853:036 JLINK_WriteReg(R4, 0x00000000)  returns 0x00 (0000ms, 8751ms total)
T128D0 2853:036 JLINK_WriteReg(R5, 0x00000000)  returns 0x00 (0000ms, 8751ms total)
T128D0 2853:036 JLINK_WriteReg(R6, 0x00000000)  returns 0x00 (0000ms, 8751ms total)
T128D0 2853:036 JLINK_WriteReg(R7, 0x00000000)  returns 0x00 (0000ms, 8751ms total)
T128D0 2853:036 JLINK_WriteReg(R8, 0x00000000)  returns 0x00 (0000ms, 8751ms total)
T128D0 2853:036 JLINK_WriteReg(R9, 0x20000230)  returns 0x00 (0000ms, 8751ms total)
T128D0 2853:036 JLINK_WriteReg(R10, 0x00000000)  returns 0x00 (0000ms, 8751ms total)
T128D0 2853:036 JLINK_WriteReg(R11, 0x00000000)  returns 0x00 (0000ms, 8751ms total)
T128D0 2853:036 JLINK_WriteReg(R12, 0x00000000)  returns 0x00 (0000ms, 8751ms total)
T128D0 2853:036 JLINK_WriteReg(R13 (SP), 0x20002000)  returns 0x00 (0000ms, 8751ms total)
T128D0 2853:036 JLINK_WriteReg(R14, 0x20000001)  returns 0x00 (0000ms, 8751ms total)
T128D0 2853:036 JLINK_WriteReg(R15 (PC), 0x2000008E)  returns 0x00 (0000ms, 8751ms total)
T128D0 2853:036 JLINK_WriteReg(XPSR, 0x01000000)  returns 0x00 (0000ms, 8751ms total)
T128D0 2853:036 JLINK_WriteReg(MSP, 0x20002000)  returns 0x00 (0000ms, 8751ms total)
T128D0 2853:036 JLINK_WriteReg(PSP, 0x20002000)  returns 0x00 (0000ms, 8751ms total)
T128D0 2853:036 JLINK_WriteReg(CFBP, 0x00000000)  returns 0x00 (0000ms, 8751ms total)
T128D0 2853:036 JLINK_SetBPEx(Addr = 0x20000000, Type = 0xFFFFFFF2)  returns 0x00000010 (0000ms, 8751ms total)
T128D0 2853:036 JLINK_Go() -- CPU_ReadMem(4 bytes @ 0xE0001000) (0004ms, 8755ms total)
T128D0 2853:040 JLINK_IsHalted() -- CPU_ReadMem(2 bytes @ 0x20000000)  returns TRUE (0006ms, 8761ms total)
T128D0 2853:046 JLINK_ReadReg(R15 (PC))  returns 0x20000000 (0000ms, 8755ms total)
T128D0 2853:046 JLINK_ClrBPEx(BPHandle = 0x00000010)  returns 0x00 (0000ms, 8755ms total)
T128D0 2853:046 JLINK_ReadReg(R0)  returns 0x00000000 (0000ms, 8755ms total)
T128D0 2853:100 JLINK_WriteMem(0x20000000, 0x0234 Bytes, ...) - Data: 00 BE 0A E0 0D 78 2D 06 68 40 08 24 40 00 00 D3 ... -- CPU_WriteMem(564 bytes @ 0x20000000)  returns 0x234 (0008ms, 8763ms total)
T128D0 2853:108 JLINK_WriteReg(R0, 0x00000000)  returns 0x00 (0001ms, 8764ms total)
T128D0 2853:109 JLINK_WriteReg(R1, 0x03D09000)  returns 0x00 (0000ms, 8764ms total)
T128D0 2853:109 JLINK_WriteReg(R2, 0x00000002)  returns 0x00 (0000ms, 8764ms total)
T128D0 2853:109 JLINK_WriteReg(R3, 0x00000000)  returns 0x00 (0000ms, 8764ms total)
T128D0 2853:109 JLINK_WriteReg(R4, 0x00000000)  returns 0x00 (0000ms, 8764ms total)
T128D0 2853:109 JLINK_WriteReg(R5, 0x00000000)  returns 0x00 (0000ms, 8764ms total)
T128D0 2853:109 JLINK_WriteReg(R6, 0x00000000)  returns 0x00 (0000ms, 8764ms total)
T128D0 2853:109 JLINK_WriteReg(R7, 0x00000000)  returns 0x00 (0000ms, 8764ms total)
T128D0 2853:109 JLINK_WriteReg(R8, 0x00000000)  returns 0x00 (0000ms, 8764ms total)
T128D0 2853:109 JLINK_WriteReg(R9, 0x20000230)  returns 0x00 (0000ms, 8764ms total)
T128D0 2853:109 JLINK_WriteReg(R10, 0x00000000)  returns 0x00 (0000ms, 8764ms total)
T128D0 2853:109 JLINK_WriteReg(R11, 0x00000000)  returns 0x00 (0000ms, 8764ms total)
T128D0 2853:109 JLINK_WriteReg(R12, 0x00000000)  returns 0x00 (0000ms, 8764ms total)
T128D0 2853:109 JLINK_WriteReg(R13 (SP), 0x20002000)  returns 0x00 (0000ms, 8764ms total)
T128D0 2853:109 JLINK_WriteReg(R14, 0x20000001)  returns 0x00 (0000ms, 8764ms total)
T128D0 2853:109 JLINK_WriteReg(R15 (PC), 0x2000003C)  returns 0x00 (0000ms, 8764ms total)
T128D0 2853:109 JLINK_WriteReg(XPSR, 0x01000000)  returns 0x00 (0000ms, 8764ms total)
T128D0 2853:109 JLINK_WriteReg(MSP, 0x20002000)  returns 0x00 (0000ms, 8764ms total)
T128D0 2853:109 JLINK_WriteReg(PSP, 0x20002000)  returns 0x00 (0000ms, 8764ms total)
T128D0 2853:109 JLINK_WriteReg(CFBP, 0x00000000)  returns 0x00 (0000ms, 8764ms total)
T128D0 2853:109 JLINK_SetBPEx(Addr = 0x20000000, Type = 0xFFFFFFF2) -- CPU_ReadMem(2 bytes @ 0x20000000)  returns 0x00000011 (0000ms, 8764ms total)
T128D0 2853:109 JLINK_Go() -- CPU_WriteMem(2 bytes @ 0x20000000) -- CPU_ReadMem(4 bytes @ 0xE0001000) (0004ms, 8768ms total)
T128D0 2853:113 JLINK_IsHalted() -- CPU_ReadMem(2 bytes @ 0x20000000)  returns TRUE (0007ms, 8775ms total)
T128D0 2853:120 JLINK_ReadReg(R15 (PC))  returns 0x20000000 (0000ms, 8768ms total)
T128D0 2853:120 JLINK_ClrBPEx(BPHandle = 0x00000011)  returns 0x00 (0000ms, 8768ms total)
T128D0 2853:120 JLINK_ReadReg(R0)  returns 0x00000000 (0000ms, 8768ms total)
T128D0 2853:120 JLINK_WriteMem(0x20000234, 0x01CC Bytes, ...) - Data: 98 5B 00 20 C1 63 02 00 C9 63 02 00 CB 63 02 00 ... -- CPU_WriteMem(460 bytes @ 0x20000234)  returns 0x1CC (0007ms, 8775ms total)
T128D0 2853:127 JLINK_WriteMem(0x20000400, 0x0400 Bytes, ...) - Data: 00 00 00 00 00 00 00 00 00 00 00 00 00 00 00 00 ... -- CPU_WriteMem(1024 bytes @ 0x20000400)  returns 0x400 (0014ms, 8789ms total)
T128D0 2853:141 JLINK_WriteMem(0x20000800, 0x0400 Bytes, ...) - Data: 40 4D 16 F0 FF 0F 15 D0 01 27 00 24 37 42 0D D0 ... -- CPU_WriteMem(1024 bytes @ 0x20000800)  returns 0x400 (0014ms, 8803ms total)
T128D0 2853:155 JLINK_WriteMem(0x20000C00, 0x0400 Bytes, ...) - Data: 3F 1D 3E 60 4F 4E 2C 36 36 68 3F 1D 3E 60 4D 4E ... -- CPU_WriteMem(1024 bytes @ 0x20000C00)  returns 0x400 (0015ms, 8818ms total)
T128D0 2853:170 JLINK_WriteMem(0x20001000, 0x0234 Bytes, ...) - Data: 02 F0 96 FF 00 28 FB D1 10 4C 01 21 20 88 01 EB ... -- CPU_WriteMem(564 bytes @ 0x20001000)  returns 0x234 (0007ms, 8825ms total)
T128D0 2853:177 JLINK_WriteReg(R0, 0x00026000)  returns 0x00 (0000ms, 8825ms total)
T128D0 2853:177 JLINK_WriteReg(R1, 0x00001000)  returns 0x00 (0000ms, 8825ms total)
